
**** 03/12/16 00:35:31 ****** PSpice Lite (October 2012) ****** ID# 10813 ****

 ** Profile: "SCHEMATIC1-lab 2"  [ F:\Group IV\Lab 2\exp 2-pspicefiles\schematic1\lab 2.sim ] 


 ****     CIRCUIT DESCRIPTION


******************************************************************************




** Creating circuit file "lab 2.cir" 
** WARNING: THIS AUTOMATICALLY GENERATED FILE MAY BE OVERWRITTEN BY SUBSEQUENT SIMULATIONS

*Libraries: 
* Profile Libraries :
* Local Libraries :
* From [PSPICE NETLIST] section of C:\Users\Jubayer\AppData\Roaming\SPB_16.6\cdssetup\OrCAD_PSpice/16.6.0/PSpice.ini file:
.lib "nomd.lib" 

*Analysis directives: 
.OPTIONS ADVCONV
.PROBE64 V(alias(*)) I(alias(*)) W(alias(*)) D(alias(*)) NOISE(alias(*)) 
.INC "..\SCHEMATIC1.net" 



**** INCLUDING SCHEMATIC1.net ****
* source EXP 2
V_Ea         N00259 0 10Vdc
V_Eb         N00296 0 10Vdc
V_Ec         N00331 0 10Vdc
V_Ed         N00361 0 10Vdc
R_Ra1         N00259 0  1k TC=0,0 
R_Rb1         N00296 N00303  1k TC=0,0 
R_Rc1         N00331 N00338  1k TC=0,0 
R_Rd1         N00361 N00368  1k TC=0,0 
R_Rb2         0 N00303  1k TC=0,0 
R_Rc2         N00345 N00338  1k TC=0,0 
R_Rc3         0 N00345  1k TC=0,0 
R_Rd2         N00375 N00368  1k TC=0,0 
R_Rd3         N00379 N00375  3.3k TC=0,0 
R_Rd4         N00379 0  4.7k TC=0,0 
R_Rm1         0 N01782  1k TC=0,0 
R_Rn1         0 N01882  1k TC=0,0 
R_Rn2         0 N01882  1k TC=0,0 
R_Ro1         0 N01942  1k TC=0,0 
R_Ro2         0 N01942  1k TC=0,0 
R_Ro3         0 N01942  3.3k TC=0,0 
R_Rp1         0 N02028  1k TC=0,0 
R_Rp2         0 N02028  1k TC=0,0 
R_Rp3         0 N02028  3.3k TC=0,0 
V_Em         N01782 0 10Vdc
V_En         N01882 0 10Vdc
V_Eo         N01942 0 10Vdc
V_Ep         N02028 0 10Vdc
R_Rp4         0 N02028  4.7k TC=0,0 
V_E         N13096 0 12Vdc
R_R2         0 N13103  10k TC=0,0 
R_R4         0 N13107  3.3k TC=0,0 
R_R6         0 N13111  1k TC=0,0 
R_R1         N13103 N13096  1k TC=0,0 
R_R3         N13107 N13103  4.7k TC=0,0 
R_R5         N13111 N13107  1k TC=0,0 

**** RESUMING "lab 2.cir" ****
.END

**** 03/12/16 00:35:31 ****** PSpice Lite (October 2012) ****** ID# 10813 ****

 ** Profile: "SCHEMATIC1-lab 2"  [ F:\Group IV\Lab 2\exp 2-pspicefiles\schematic1\lab 2.sim ] 


 ****     SMALL SIGNAL BIAS SOLUTION       TEMPERATURE =   27.000 DEG C


******************************************************************************



 NODE   VOLTAGE     NODE   VOLTAGE     NODE   VOLTAGE     NODE   VOLTAGE


(N00259)   10.0000 (N00296)   10.0000 (N00303)    5.0000 (N00331)   10.0000     

(N00338)    6.6667 (N00345)    3.3333 (N00361)   10.0000 (N00368)    9.0000     

(N00375)    8.0000 (N00379)    4.7000 (N01782)   10.0000 (N01882)   10.0000     

(N01942)   10.0000 (N02028)   10.0000 (N13096)   12.0000 (N13103)    9.4622     

(N13107)    1.9819 (N13111)     .9910 




    VOLTAGE SOURCE CURRENTS
    NAME         CURRENT

    V_Ea        -1.000E-02
    V_Eb        -5.000E-03
    V_Ec        -3.333E-03
    V_Ed        -1.000E-03
    V_Em        -1.000E-02
    V_En        -2.000E-02
    V_Eo        -2.303E-02
    V_Ep        -2.516E-02
    V_E         -2.538E-03

    TOTAL POWER DISSIPATION   1.01E+00  WATTS



          JOB CONCLUDED

**** 03/12/16 00:35:31 ****** PSpice Lite (October 2012) ****** ID# 10813 ****

 ** Profile: "SCHEMATIC1-lab 2"  [ F:\Group IV\Lab 2\exp 2-pspicefiles\schematic1\lab 2.sim ] 


 ****     JOB STATISTICS SUMMARY


******************************************************************************



  Total job time (using Solver 1)   =        0.00
