
**** 03/11/16 23:28:42 ****** PSpice Lite (October 2012) ****** ID# 10813 ****

 ** Profile: "SCHEMATIC1-lab 1"  [ F:\GROUP IV\LAB 1\Exp 1-PSpiceFiles\SCHEMATIC1\lab 1.sim ] 


 ****     CIRCUIT DESCRIPTION


******************************************************************************




** Creating circuit file "lab 1.cir" 
** WARNING: THIS AUTOMATICALLY GENERATED FILE MAY BE OVERWRITTEN BY SUBSEQUENT SIMULATIONS

*Libraries: 
* Profile Libraries :
* Local Libraries :
* From [PSPICE NETLIST] section of C:\Users\Jubayer\AppData\Roaming\SPB_16.6\cdssetup\OrCAD_PSpice/16.6.0/PSpice.ini file:
.lib "nomd.lib" 

*Analysis directives: 
.TRAN  0 1000ns 0 
.OPTIONS ADVCONV
.PROBE64 V(alias(*)) I(alias(*)) W(alias(*)) D(alias(*)) NOISE(alias(*)) 
.INC "..\SCHEMATIC1.net" 



**** INCLUDING SCHEMATIC1.net ****
* source EXP 1
V_V         N00067 0 10Vdc
R_R         0 N00067  3.3k TC=0,0 
R_R2         N00347 N00343  4.7k TC=0,0 
R_R3         0 N00347  5.6k TC=0,0 
R_R1         N00343 N00331  3.3k TC=0,0 
V_Vs         N00331 0 15Vdc

**** RESUMING "lab 1.cir" ****
.END

**** 03/11/16 23:28:42 ****** PSpice Lite (October 2012) ****** ID# 10813 ****

 ** Profile: "SCHEMATIC1-lab 1"  [ F:\GROUP IV\LAB 1\Exp 1-PSpiceFiles\SCHEMATIC1\lab 1.sim ] 


 ****     INITIAL TRANSIENT SOLUTION       TEMPERATURE =   27.000 DEG C


******************************************************************************



 NODE   VOLTAGE     NODE   VOLTAGE     NODE   VOLTAGE     NODE   VOLTAGE


(N00067)   10.0000 (N00331)   15.0000 (N00343)   11.3600 (N00347)    6.1765 




    VOLTAGE SOURCE CURRENTS
    NAME         CURRENT

    V_V         -3.030E-03
    V_Vs        -1.103E-03

    TOTAL POWER DISSIPATION   4.68E-02  WATTS



          JOB CONCLUDED

**** 03/11/16 23:28:42 ****** PSpice Lite (October 2012) ****** ID# 10813 ****

 ** Profile: "SCHEMATIC1-lab 1"  [ F:\GROUP IV\LAB 1\Exp 1-PSpiceFiles\SCHEMATIC1\lab 1.sim ] 


 ****     JOB STATISTICS SUMMARY


******************************************************************************



  Total job time (using Solver 1)   =         .02
